T1CA8 1691:151 SEGGER J-Link V6.30h Log File (0001ms, 3612ms total)
T1CA8 1691:151 DLL Compiled: Mar 16 2018 18:02:51 (0001ms, 3612ms total)
T1CA8 1691:151 Logging started @ 2018-07-18 21:12 (0001ms, 3612ms total)
T1CA8 1691:152 JLINK_SetWarnOutHandler(...) (0000ms, 3612ms total)
T1CA8 1691:152 JLINK_OpenEx(...)
Firmware: J-Link V9 compiled Mar  2 2018 17:07:57
Hardware: V9.40
S/N: 59400009
Feature(s): GDB, RDI, FlashBP, FlashDL, JFlash
TELNET listener socket opened on port 19021WEBSRV 
Starting webserver (0141ms, 3753ms total)
T1CA8 1691:152 WEBSRV Webserver running on local port 19080 (0141ms, 3753ms total)
T1CA8 1691:152   returns O.K. (0141ms, 3753ms total)
T1CA8 1691:294 JLINK_GetEmuCaps()  returns 0xB9FF7BBF (0001ms, 3754ms total)
T1CA8 1691:295 JLINK_TIF_GetAvailable(...) (0000ms, 3754ms total)
T1CA8 1691:295 JLINK_SetErrorOutHandler(...) (0001ms, 3755ms total)
T1CA8 1691:296 JLINK_ExecCommand("ProjectFile = "D:\projects\prj\18\Car Position\code\Hardware\RF_433MHz\cc1121 - ¸±±¾\MDK-ARM\JLinkSettings.ini"", ...).   returns 0x00 (0002ms, 3757ms total)
T1CA8 1691:298 JLINK_ExecCommand("Device = STM32F042F6", ...). Device "STM32F042F6" selected.  returns 0x00 (0002ms, 3759ms total)
T1CA8 1691:300 JLINK_ExecCommand("DisableConnectionTimeout", ...).   returns 0x01 (0000ms, 3759ms total)
T1CA8 1691:300 JLINK_GetHardwareVersion()  returns 0x16F30 (0000ms, 3759ms total)
T1CA8 1691:300 JLINK_GetDLLVersion()  returns 63008 (0000ms, 3759ms total)
T1CA8 1691:300 JLINK_GetFirmwareString(...) (0000ms, 3759ms total)
T1CA8 1691:301 JLINK_GetDLLVersion()  returns 63008 (0000ms, 3759ms total)
T1CA8 1691:301 JLINK_GetCompileDateTime() (0000ms, 3759ms total)
T1CA8 1691:301 JLINK_GetFirmwareString(...) (0000ms, 3759ms total)
T1CA8 1691:301 JLINK_GetHardwareVersion()  returns 0x16F30 (0000ms, 3759ms total)
T1CA8 1691:301 JLINK_TIF_Select(JLINKARM_TIF_SWD)  returns 0x00 (0004ms, 3763ms total)
T1CA8 1691:305 JLINK_SetSpeed(2000) (0001ms, 3764ms total)
T1CA8 1691:306 JLINK_GetId() >0x10B TIF>Found SW-DP with ID 0x0BB11477 >0x0D TIF> >0x28 TIF> >0x0D TIF> >0x28 TIF> >0x0D TIF> >0x28 TIF> >0x0D TIF> >0x28 TIF> >0x0D TIF> >0x21 TIF> >0x0D TIF> >0x28 TIF> >0x0D TIF> >0x28 TIF> >0x0D TIF> >0x28 TIF> >0x0D TIF> >0x21 TIF> >0x0D TIF> >0x21 TIF> >0x0D TIF> >0x28 TIF> >0x0D TIF> >0x21 TIF> >0x0D TIF> >0x21 TIF> >0x0D TIF> >0x28 TIF> >0x0D TIF> >0x21 TIF> >0x0D TIF> >0x21 TIF> >0x0D TIF> >0x28 TIF> >0x0D TIF> >0x28 TIF> >0x0D TIF> >0x28 TIF> >0x0D TIF>
 >0x21 TIF> >0x0D TIF> >0x21 TIF> >0x0D TIF> >0x28 TIF> >0x0D TIF> >0x28 TIF> >0x0D TIF> >0x28 TIF> >0x0D TIF> >0x21 TIF> >0x0D TIF> >0x21 TIF> >0x0D TIF> >0x28 TIF> >0x0D TIF> >0x21 TIF> >0x0D TIF> >0x21 TIF> >0x0D TIF> >0x28 TIF> >0x0D TIF> >0x21 TIF> >0x0D TIF> >0x21 TIF> >0x0D TIF> >0x28 TIF> >0x0D TIF> >0x21 TIF> >0x0D TIF> >0x21 TIF> >0x0D TIF> >0x28 TIF> >0x0D TIF> >0x21 TIF> >0x0D TIF> >0x21 TIF> >0x0D TIF> >0x28 TIF> >0x0D TIF> >0x21 TIF> >0x0D TIF> >0x21 TIF> >0x10B TIF>
Found SW-DP with ID 0x0BB11477 >0x0D TIF> >0x28 TIF> >0x0D TIF> >0x28 TIF> >0x0D TIF> >0x28 TIF> >0x0D TIF> >0x28 TIF> >0x0D TIF> >0x21 TIF> >0x0D TIF> >0x28 TIF>Scanning AP map to find all available APs >0x0D TIF> >0x28 TIF> >0x0D TIF> >0x21 TIF> >0x0D TIF> >0x21 TIF> >0x0D TIF> >0x28 TIF> >0x0D TIF> >0x21 TIF> >0x0D TIF> >0x21 TIF>AP[1]: Stopped AP scan as end of AP map has been reachedAP[0]: AHB-AP (IDR: 0x04770021)Iterating through AP map to find AHB-AP to use >0x42 TIF> >0x28 TIF> >0x0D TIF>
 >0x28 TIF> >0x0D TIF> >0x21 TIF> >0x0D TIF> >0x21 TIF> >0x42 TIF> >0x28 TIF> >0x0D TIF> >0x28 TIF> >0x0D TIF> >0x28 TIF> >0x0D TIF> >0x21 TIF> >0x0D TIF> >0x21 TIF>AP[0]: Core foundAP[0]: AHB-AP ROM base: 0xE00FF000 >0x0D TIF> >0x28 TIF> >0x0D TIF> >0x28 TIF> >0x0D TIF> >0x28 TIF> >0x0D TIF> >0x21 TIF> >0x0D TIF> >0x21 TIF>CPUID register: 0x410CC200. Implementer code: 0x41 (ARM)Found Cortex-M0 r0p0, Little endian. -- CPU_ReadMem(4 bytes @ 0xE000EDF0) -- CPU_WriteMem(4 bytes @ 0xE000EDF0)
 -- CPU_ReadMem(4 bytes @ 0xE0002000)FPUnit: 4 code (BP) slots and 0 literal slots -- CPU_ReadMem(4 bytes @ 0xE000EDFC) -- CPU_WriteMem(4 bytes @ 0xE000EDFC) -- CPU_ReadMem(4 bytes @ 0xE0001000) -- CPU_WriteMem(4 bytes @ 0xE0001000)CoreSight components:ROMTbl[0] @ E00FF000 -- CPU_ReadMem(16 bytes @ 0xE00FF000) -- CPU_ReadMem(16 bytes @ 0xE000EFF0) -- CPU_ReadMem(16 bytes @ 0xE000EFE0)ROMTbl[0][0]: E000E000, CID: B105E00D, PID: 000BB008 SCS -- CPU_ReadMem(16 bytes @ 0xE0001FF0)
 -- CPU_ReadMem(16 bytes @ 0xE0001FE0)ROMTbl[0][1]: E0001000, CID: B105E00D, PID: 000BB00A DWT -- CPU_ReadMem(16 bytes @ 0xE0002FF0) -- CPU_ReadMem(16 bytes @ 0xE0002FE0)ROMTbl[0][2]: E0002000, CID: B105E00D, PID: 000BB00B FPB >0x0D TIF> >0x21 TIF>  returns 0x0BB11477 (0267ms, 4031ms total)
T1CA8 1691:573 JLINK_GetDLLVersion()  returns 63008 (0000ms, 4031ms total)
T1CA8 1691:573 JLINK_CORE_GetFound()  returns 0x60000FF (0000ms, 4031ms total)
T1CA8 1691:573 JLINK_GetDebugInfo(0x100 = JLINKARM_ROM_TABLE_ADDR_INDEX) -- Value=0xE00FF000  returns 0x00 (0000ms, 4031ms total)
T1CA8 1691:573 JLINK_GetDebugInfo(0x100 = JLINKARM_ROM_TABLE_ADDR_INDEX) -- Value=0xE00FF000  returns 0x00 (0000ms, 4031ms total)
T1CA8 1691:573 JLINK_GetDebugInfo(0x101 = JLINKARM_DEBUG_INFO_ETM_ADDR_INDEX) -- Value=0x00000000  returns 0x00 (0000ms, 4031ms total)
T1CA8 1691:573 JLINK_ReadMemEx(0xE0041FF0, 0x0010 Bytes, ..., Flags = 0x02000004) -- CPU_ReadMem(16 bytes @ 0xE0041FF0) - Data: 00 00 00 00 00 00 00 00 00 00 00 00 00 00 00 00  returns 0x10 (0001ms, 4032ms total)
T1CA8 1691:574 JLINK_GetDebugInfo(0x102 = JLINKARM_DEBUG_INFO_MTB_ADDR_INDEX) -- Value=0x00000000  returns 0x00 (0000ms, 4032ms total)
T1CA8 1691:574 JLINK_GetDebugInfo(0x103 = JLINKARM_DEBUG_INFO_TPIU_ADDR_INDEX) -- Value=0x00000000  returns 0x00 (0000ms, 4032ms total)
T1CA8 1691:574 JLINK_ReadMemEx(0xE0040FF0, 0x0010 Bytes, ..., Flags = 0x02000004) -- CPU_ReadMem(16 bytes @ 0xE0040FF0) - Data: 00 00 00 00 00 00 00 00 00 00 00 00 00 00 00 00  returns 0x10 (0001ms, 4033ms total)
T1CA8 1691:575 JLINK_GetDebugInfo(0x104 = JLINKARM_DEBUG_INFO_ITM_ADDR_INDEX) -- Value=0xE0000000  returns 0x00 (0000ms, 4033ms total)
T1CA8 1691:575 JLINK_GetDebugInfo(0x105 = JLINKARM_DEBUG_INFO_DWT_ADDR_INDEX) -- Value=0xE0001000  returns 0x00 (0000ms, 4033ms total)
T1CA8 1691:575 JLINK_GetDebugInfo(0x106 = JLINKARM_DEBUG_INFO_FPB_ADDR_INDEX) -- Value=0xE0002000  returns 0x00 (0000ms, 4033ms total)
T1CA8 1691:575 JLINK_GetDebugInfo(0x107 = JLINKARM_DEBUG_INFO_NVIC_ADDR_INDEX) -- Value=0xE000E000  returns 0x00 (0000ms, 4033ms total)
T1CA8 1691:575 JLINK_GetDebugInfo(0x10C = JLINKARM_DEBUG_INFO_DBG_ADDR_INDEX) -- Value=0xE000EDF0  returns 0x00 (0000ms, 4033ms total)
T1CA8 1691:575 JLINK_GetDebugInfo(0x01 = Unknown) -- Value=0x00000000  returns 0x00 (0000ms, 4033ms total)
T1CA8 1691:575 JLINK_ReadMemU32(0xE000ED00, 0x0001 Items, ...) -- CPU_ReadMem(4 bytes @ 0xE000ED00) - Data: 00 C2 0C 41  returns 0x01 (0001ms, 4034ms total)
T1CA8 1691:576 JLINK_GetDebugInfo(0x10F = JLINKARM_DEBUG_INFO_HAS_CORTEX_M_SECURITY_EXT_INDEX) -- Value=0x00000000  returns 0x00 (0000ms, 4034ms total)
T1CA8 1691:576 JLINK_SetResetType(JLINKARM_CM3_RESET_TYPE_NORMAL)  returns JLINKARM_CM3_RESET_TYPE_NORMAL (0000ms, 4034ms total)
T1CA8 1691:576 JLINK_Reset() -- CPU is running -- CPU_WriteMem(4 bytes @ 0xE000EDF0) -- CPU is running -- CPU_WriteMem(4 bytes @ 0xE000EDFC)Reset: Halt core after reset via DEMCR.VC_CORERESET. >0x35 TIF>Reset: Reset device via AIRCR.SYSRESETREQ. -- CPU is running -- CPU_WriteMem(4 bytes @ 0xE000ED0C) >0x0D TIF> >0x28 TIF> -- CPU_ReadMem(4 bytes @ 0xE000EDF0) -- CPU_ReadMem(4 bytes @ 0xE000EDF0) -- CPU is running -- CPU_WriteMem(4 bytes @ 0xE000EDF0) -- CPU is running -- CPU_WriteMem(4 bytes @ 0xE000EDFC)
 -- CPU_ReadMem(4 bytes @ 0xE000EDF0) -- CPU_WriteMem(4 bytes @ 0xE0002000) -- CPU_ReadMem(4 bytes @ 0xE000EDFC) -- CPU_ReadMem(4 bytes @ 0xE0001000) -- CPU_WriteMem(4 bytes @ 0xE0001000) (0082ms, 4116ms total)
T1CA8 1691:658 JLINK_ReadReg(R15 (PC))  returns 0x080000D4 (0000ms, 4116ms total)
T1CA8 1691:658 JLINK_ReadReg(XPSR)  returns 0xC1000000 (0000ms, 4116ms total)
T1CA8 1691:658 JLINK_Halt()  returns 0x00 (0000ms, 4116ms total)
T1CA8 1691:658 JLINK_ReadMemU32(0xE000EDF0, 0x0001 Items, ...) -- CPU_ReadMem(4 bytes @ 0xE000EDF0) - Data: 03 00 03 00  returns 0x01 (0002ms, 4118ms total)
T1CA8 1691:660 JLINK_WriteU32(0xE000EDF0, 0xA05F0003) -- CPU_WriteMem(4 bytes @ 0xE000EDF0)  returns 0x00 (0002ms, 4120ms total)
T1CA8 1691:662 JLINK_WriteU32(0xE000EDFC, 0x01000000) -- CPU_WriteMem(4 bytes @ 0xE000EDFC)  returns 0x00 (0002ms, 4122ms total)
T1CA8 1691:664 JLINK_GetHWStatus(...)  returns 0x00 (0001ms, 4123ms total)
T1CA8 1691:665 JLINK_GetNumBPUnits(Type = 0xFFFFFF00)  returns 0x04 (0000ms, 4123ms total)
T1CA8 1691:665 JLINK_GetNumBPUnits(Type = 0xF0)  returns 0x2000 (0000ms, 4123ms total)
T1CA8 1691:665 JLINK_GetNumWPUnits()  returns 0x02 (0000ms, 4123ms total)
T1CA8 1691:665 JLINK_GetSpeed()  returns 0x7D0 (0000ms, 4123ms total)
T1CA8 1691:665 JLINK_ReadMemU32(0xE000E004, 0x0001 Items, ...) -- CPU_ReadMem(4 bytes @ 0xE000E004) - Data: 00 00 00 00  returns 0x01 (0002ms, 4125ms total)
T1CA8 1691:667 JLINK_ReadReg(R15 (PC))  returns 0x080000D4 (0000ms, 4125ms total)
T1CA8 1691:668 JLINK_ReadReg(XPSR)  returns 0xC1000000 (0000ms, 4126ms total)
T1CA8 1691:971 JLINK_SetResetType(JLINKARM_CM3_RESET_TYPE_NORMAL)  returns JLINKARM_CM3_RESET_TYPE_NORMAL (0000ms, 4126ms total)
T1CA8 1691:971 JLINK_Reset() -- CPU_WriteMem(4 bytes @ 0xE000EDF0) -- CPU_WriteMem(4 bytes @ 0xE000EDFC)Reset: Halt core after reset via DEMCR.VC_CORERESET. >0x35 TIF>Reset: Reset device via AIRCR.SYSRESETREQ. -- CPU_WriteMem(4 bytes @ 0xE000ED0C) >0x0D TIF> >0x28 TIF> -- CPU_ReadMem(4 bytes @ 0xE000EDF0) -- CPU_ReadMem(4 bytes @ 0xE000EDF0) -- CPU_WriteMem(4 bytes @ 0xE000EDF0) -- CPU_WriteMem(4 bytes @ 0xE000EDFC) -- CPU_ReadMem(4 bytes @ 0xE000EDF0) -- CPU_WriteMem(4 bytes @ 0xE0002000)
 -- CPU_ReadMem(4 bytes @ 0xE000EDFC) -- CPU_ReadMem(4 bytes @ 0xE0001000) -- CPU_WriteMem(4 bytes @ 0xE0001000) (0076ms, 4202ms total)
T1CA8 1692:048 JLINK_ReadReg(R15 (PC))  returns 0x080000D4 (0000ms, 4202ms total)
T1CA8 1692:048 JLINK_ReadReg(XPSR)  returns 0xC1000000 (0000ms, 4202ms total)
T1CA8 1692:048 JLINK_ReadMemEx(0x080000D4, 0x003C Bytes, ..., Flags = 0x02000000) -- CPU_ReadMem(128 bytes @ 0x080000C0) -- Updating C cache (128 bytes @ 0x080000C0) -- Read from C cache (60 bytes @ 0x080000D4) - Data: 0C 48 80 F3 08 88 0C 48 01 68 09 0E 0B 4A 91 42 ...  returns 0x3C (0002ms, 4204ms total)
T25A8 1694:358 JLINK_ReadMemEx(0x080000D4, 0x0002 Bytes, ..., Flags = 0x02000000) -- Read from C cache (2 bytes @ 0x080000D4) - Data: 0C 48  returns 0x02 (0001ms, 4205ms total)
T25A8 1694:359 JLINK_SetBPEx(Addr = 0x08001E5C, Type = 0xFFFFFFF2)  returns 0x00000001 (0000ms, 4205ms total)
T25A8 1694:359 JLINK_Go() -- CPU_WriteMem(4 bytes @ 0xE0002000) -- CPU_ReadMem(4 bytes @ 0xE0001000) -- CPU_WriteMem(4 bytes @ 0xE0001000) -- CPU_WriteMem(4 bytes @ 0xE0002008) -- CPU_WriteMem(4 bytes @ 0xE000200C) -- CPU_WriteMem(4 bytes @ 0xE0002010) -- CPU_WriteMem(4 bytes @ 0xE0002014) -- CPU_WriteMem(4 bytes @ 0xE0001004) (0007ms, 4212ms total)
T25A8 1694:466 JLINK_IsHalted()  returns TRUE (0004ms, 4216ms total)
T25A8 1694:470 JLINK_Halt()  returns 0x00 (0000ms, 4212ms total)
T25A8 1694:470 JLINK_IsHalted()  returns TRUE (0000ms, 4212ms total)
T25A8 1694:470 JLINK_IsHalted()  returns TRUE (0000ms, 4212ms total)
T25A8 1694:470 JLINK_IsHalted()  returns TRUE (0000ms, 4212ms total)
T25A8 1694:470 JLINK_ReadReg(R15 (PC))  returns 0x08001E5C (0000ms, 4212ms total)
T25A8 1694:470 JLINK_ReadReg(XPSR)  returns 0x61000000 (0000ms, 4212ms total)
T25A8 1694:470 JLINK_ClrBPEx(BPHandle = 0x00000001)  returns 0x00 (0000ms, 4212ms total)
T25A8 1694:470 JLINK_ReadMemU32(0xE000ED30, 0x0001 Items, ...) -- CPU_ReadMem(4 bytes @ 0xE000ED30) - Data: 02 00 00 00  returns 0x01 (0001ms, 4213ms total)
T25A8 1694:471 JLINK_ReadMemU32(0xE0001028, 0x0001 Items, ...) -- CPU_ReadMem(4 bytes @ 0xE0001028) - Data: 00 00 00 00  returns 0x01 (0001ms, 4214ms total)
T25A8 1694:472 JLINK_ReadMemU32(0xE0001038, 0x0001 Items, ...) -- CPU_ReadMem(4 bytes @ 0xE0001038) - Data: 00 00 00 00  returns 0x01 (0001ms, 4215ms total)
T25A8 1694:473 JLINK_ReadReg(R0)  returns 0x08001E5D (0000ms, 4215ms total)
T25A8 1694:473 JLINK_ReadReg(R1)  returns 0x200006D0 (0000ms, 4215ms total)
T25A8 1694:473 JLINK_ReadReg(R2)  returns 0x00000000 (0000ms, 4215ms total)
T25A8 1694:473 JLINK_ReadReg(R3)  returns 0x08001E3B (0000ms, 4215ms total)
T25A8 1694:473 JLINK_ReadReg(R4)  returns 0x08001F20 (0000ms, 4215ms total)
T25A8 1694:473 JLINK_ReadReg(R5)  returns 0x00000001 (0000ms, 4215ms total)
T25A8 1694:473 JLINK_ReadReg(R6)  returns 0x08001F20 (0000ms, 4215ms total)
T25A8 1694:473 JLINK_ReadReg(R7)  returns 0xFFFFFFFF (0000ms, 4215ms total)
T25A8 1694:473 JLINK_ReadReg(R8)  returns 0xFFFFFFFF (0000ms, 4215ms total)
T25A8 1694:473 JLINK_ReadReg(R9)  returns 0xFFFFFFFF (0000ms, 4215ms total)
T25A8 1694:473 JLINK_ReadReg(R10)  returns 0xFFFFFFFF (0000ms, 4215ms total)
T25A8 1694:473 JLINK_ReadReg(R11)  returns 0xFFFFFFFF (0000ms, 4215ms total)
T25A8 1694:473 JLINK_ReadReg(R12)  returns 0xFFFFFFFF (0000ms, 4215ms total)
T25A8 1694:473 JLINK_ReadReg(R13 (SP))  returns 0x200006D0 (0000ms, 4215ms total)
T25A8 1694:473 JLINK_ReadReg(R14)  returns 0x08000175 (0000ms, 4215ms total)
T25A8 1694:474 JLINK_ReadReg(R15 (PC))  returns 0x08001E5C (0000ms, 4216ms total)
T25A8 1694:474 JLINK_ReadReg(XPSR)  returns 0x61000000 (0000ms, 4216ms total)
T25A8 1694:474 JLINK_ReadReg(MSP)  returns 0x200006D0 (0000ms, 4216ms total)
T25A8 1694:474 JLINK_ReadReg(PSP)  returns 0xFFFFFFFC (0000ms, 4216ms total)
T25A8 1694:474 JLINK_ReadReg(CFBP)  returns 0x00000000 (0000ms, 4216ms total)
T25A8 1698:952 JLINK_ReadMemEx(0x08001E5C, 0x0002 Bytes, ..., Flags = 0x02000000) -- CPU_ReadMem(64 bytes @ 0x08001E40) -- Updating C cache (64 bytes @ 0x08001E40) -- Read from C cache (2 bytes @ 0x08001E5C) - Data: FE F7  returns 0x02 (0001ms, 4217ms total)
T25A8 1698:953 JLINK_SetBPEx(Addr = 0x08001E74, Type = 0xFFFFFFF2)  returns 0x00000002 (0000ms, 4217ms total)
T25A8 1698:953 JLINK_SetBPEx(Addr = 0x08001E78, Type = 0xFFFFFFF2)  returns 0x00000003 (0000ms, 4217ms total)
T25A8 1698:953 JLINK_Go() -- CPU_WriteMem(4 bytes @ 0xE0002000) -- CPU_WriteMem(4 bytes @ 0xE0002000) -- CPU_ReadMem(4 bytes @ 0xE0001000) -- CPU_WriteMem(4 bytes @ 0xE0001000) -- CPU_WriteMem(4 bytes @ 0xE0002008) -- CPU_WriteMem(4 bytes @ 0xE000200C) (0007ms, 4224ms total)
T25A8 1699:060 JLINK_IsHalted()  returns TRUE (0004ms, 4228ms total)
T25A8 1699:064 JLINK_Halt()  returns 0x00 (0000ms, 4224ms total)
T25A8 1699:064 JLINK_IsHalted()  returns TRUE (0000ms, 4224ms total)
T25A8 1699:064 JLINK_IsHalted()  returns TRUE (0000ms, 4224ms total)
T25A8 1699:064 JLINK_IsHalted()  returns TRUE (0001ms, 4225ms total)
T25A8 1699:065 JLINK_ReadReg(R15 (PC))  returns 0x08001E74 (0000ms, 4224ms total)
T25A8 1699:065 JLINK_ReadReg(XPSR)  returns 0x61000000 (0000ms, 4224ms total)
T25A8 1699:065 JLINK_ClrBPEx(BPHandle = 0x00000002)  returns 0x00 (0000ms, 4224ms total)
T25A8 1699:065 JLINK_ClrBPEx(BPHandle = 0x00000003)  returns 0x00 (0000ms, 4224ms total)
T25A8 1699:065 JLINK_ReadMemU32(0xE000ED30, 0x0001 Items, ...) -- CPU_ReadMem(4 bytes @ 0xE000ED30) - Data: 02 00 00 00  returns 0x01 (0002ms, 4226ms total)
T25A8 1699:067 JLINK_ReadMemU32(0xE0001028, 0x0001 Items, ...) -- CPU_ReadMem(4 bytes @ 0xE0001028) - Data: 00 00 00 00  returns 0x01 (0001ms, 4227ms total)
T25A8 1699:068 JLINK_ReadMemU32(0xE0001038, 0x0001 Items, ...) -- CPU_ReadMem(4 bytes @ 0xE0001038) - Data: 00 00 00 00  returns 0x01 (0002ms, 4229ms total)
T25A8 1699:070 JLINK_ReadReg(R0)  returns 0x24000000 (0000ms, 4229ms total)
T25A8 1699:070 JLINK_ReadReg(R1)  returns 0x200006B8 (0000ms, 4229ms total)
T25A8 1699:070 JLINK_ReadReg(R2)  returns 0x00000004 (0000ms, 4229ms total)
T25A8 1699:070 JLINK_ReadReg(R3)  returns 0x00000001 (0000ms, 4229ms total)
T25A8 1699:070 JLINK_ReadReg(R4)  returns 0x08001F20 (0000ms, 4229ms total)
T25A8 1699:070 JLINK_ReadReg(R5)  returns 0x00000001 (0000ms, 4229ms total)
T25A8 1699:070 JLINK_ReadReg(R6)  returns 0x08001F20 (0000ms, 4229ms total)
T25A8 1699:070 JLINK_ReadReg(R7)  returns 0xFFFFFFFF (0000ms, 4229ms total)
T25A8 1699:070 JLINK_ReadReg(R8)  returns 0xFFFFFFFF (0000ms, 4229ms total)
T25A8 1699:070 JLINK_ReadReg(R9)  returns 0xFFFFFFFF (0000ms, 4229ms total)
T25A8 1699:070 JLINK_ReadReg(R10)  returns 0xFFFFFFFF (0001ms, 4230ms total)
T25A8 1699:071 JLINK_ReadReg(R11)  returns 0xFFFFFFFF (0000ms, 4230ms total)
T25A8 1699:071 JLINK_ReadReg(R12)  returns 0xFFFFFFFF (0000ms, 4230ms total)
T25A8 1699:071 JLINK_ReadReg(R13 (SP))  returns 0x200006D0 (0000ms, 4230ms total)
T25A8 1699:071 JLINK_ReadReg(R14)  returns 0x08000225 (0000ms, 4230ms total)
T25A8 1699:071 JLINK_ReadReg(R15 (PC))  returns 0x08001E74 (0000ms, 4230ms total)
T25A8 1699:071 JLINK_ReadReg(XPSR)  returns 0x61000000 (0000ms, 4230ms total)
T25A8 1699:071 JLINK_ReadReg(MSP)  returns 0x200006D0 (0000ms, 4230ms total)
T25A8 1699:071 JLINK_ReadReg(PSP)  returns 0xFFFFFFFC (0000ms, 4230ms total)
T25A8 1699:071 JLINK_ReadReg(CFBP)  returns 0x00000000 (0000ms, 4230ms total)
T25A8 1700:265 JLINK_ReadMemEx(0x08001E74, 0x003C Bytes, ..., Flags = 0x02000000) -- CPU_ReadMem(128 bytes @ 0x08001E40) -- Updating C cache (128 bytes @ 0x08001E40) -- Read from C cache (60 bytes @ 0x08001E74) - Data: FF F7 A4 FD 00 BF FE E7 00 06 01 06 02 B0 03 06 ...  returns 0x3C (0003ms, 4233ms total)
T25A8 1700:269 JLINK_ReadMemEx(0x08001E74, 0x0002 Bytes, ..., Flags = 0x02000000) -- Read from C cache (2 bytes @ 0x08001E74) - Data: FF F7  returns 0x02 (0000ms, 4233ms total)
T25A8 1700:269 JLINK_Step() -- Read from C cache (2 bytes @ 0x08001E74) -- CPU_ReadMem(4 bytes @ 0xE000ED18) -- CPU_WriteMem(4 bytes @ 0xE000ED18) -- CPU_ReadMem(4 bytes @ 0xE000ED18) -- CPU_WriteMem(4 bytes @ 0xE000ED18) -- CPU_ReadMem(4 bytes @ 0xE0001004) -- Read from C cache (2 bytes @ 0x08001E76) -- Simulated  returns 0x00 (0009ms, 4242ms total)
T25A8 1700:278 JLINK_ReadReg(R15 (PC))  returns 0x080019C0 (0000ms, 4242ms total)
T25A8 1700:279 JLINK_ReadReg(XPSR)  returns 0x61000000 (0000ms, 4242ms total)
T25A8 1700:279 JLINK_ReadReg(R0)  returns 0x24000000 (0000ms, 4242ms total)
T25A8 1700:279 JLINK_ReadReg(R1)  returns 0x200006B8 (0000ms, 4242ms total)
T25A8 1700:279 JLINK_ReadReg(R2)  returns 0x00000004 (0000ms, 4242ms total)
T25A8 1700:279 JLINK_ReadReg(R3)  returns 0x00000001 (0000ms, 4242ms total)
T25A8 1700:279 JLINK_ReadReg(R4)  returns 0x08001F20 (0000ms, 4242ms total)
T25A8 1700:279 JLINK_ReadReg(R5)  returns 0x00000001 (0000ms, 4242ms total)
T25A8 1700:279 JLINK_ReadReg(R6)  returns 0x08001F20 (0001ms, 4243ms total)
T25A8 1700:280 JLINK_ReadReg(R7)  returns 0xFFFFFFFF (0000ms, 4243ms total)
T25A8 1700:280 JLINK_ReadReg(R8)  returns 0xFFFFFFFF (0000ms, 4243ms total)
T25A8 1700:280 JLINK_ReadReg(R9)  returns 0xFFFFFFFF (0000ms, 4243ms total)
T25A8 1700:280 JLINK_ReadReg(R10)  returns 0xFFFFFFFF (0000ms, 4243ms total)
T25A8 1700:280 JLINK_ReadReg(R11)  returns 0xFFFFFFFF (0000ms, 4243ms total)
T25A8 1700:280 JLINK_ReadReg(R12)  returns 0xFFFFFFFF (0000ms, 4243ms total)
T25A8 1700:280 JLINK_ReadReg(R13 (SP))  returns 0x200006D0 (0001ms, 4244ms total)
T25A8 1700:281 JLINK_ReadReg(R14)  returns 0x08001E79 (0000ms, 4244ms total)
T25A8 1700:281 JLINK_ReadReg(R15 (PC))  returns 0x080019C0 (0000ms, 4244ms total)
T25A8 1700:281 JLINK_ReadReg(XPSR)  returns 0x61000000 (0000ms, 4244ms total)
T25A8 1700:281 JLINK_ReadReg(MSP)  returns 0x200006D0 (0000ms, 4244ms total)
T25A8 1700:281 JLINK_ReadReg(PSP)  returns 0xFFFFFFFC (0000ms, 4244ms total)
T25A8 1700:281 JLINK_ReadReg(CFBP)  returns 0x00000000 (0000ms, 4244ms total)
T25A8 1702:517 JLINK_ReadMemEx(0x080019C0, 0x003C Bytes, ..., Flags = 0x02000000) -- CPU_ReadMem(64 bytes @ 0x080019C0) -- Updating C cache (64 bytes @ 0x080019C0) -- Read from C cache (60 bytes @ 0x080019C0) - Data: 10 B5 00 F0 40 F8 30 20 FE F7 6E FC 01 20 00 F0 ...  returns 0x3C (0002ms, 4246ms total)
T25A8 1702:519 JLINK_ReadMemEx(0x080019C0, 0x0002 Bytes, ..., Flags = 0x02000000) -- Read from C cache (2 bytes @ 0x080019C0) - Data: 10 B5  returns 0x02 (0000ms, 4246ms total)
T25A8 1702:519 JLINK_Step() -- Read from C cache (2 bytes @ 0x080019C0) -- CPU_WriteMem(8 bytes @ 0x200006C8) -- Simulated  returns 0x00 (0003ms, 4249ms total)
T25A8 1702:522 JLINK_ReadReg(R15 (PC))  returns 0x080019C2 (0000ms, 4249ms total)
T25A8 1702:522 JLINK_ReadReg(XPSR)  returns 0x61000000 (0000ms, 4249ms total)
T25A8 1702:523 JLINK_ReadReg(R0)  returns 0x24000000 (0000ms, 4250ms total)
T25A8 1702:523 JLINK_ReadReg(R1)  returns 0x200006B8 (0000ms, 4250ms total)
T25A8 1702:523 JLINK_ReadReg(R2)  returns 0x00000004 (0000ms, 4250ms total)
T25A8 1702:523 JLINK_ReadReg(R3)  returns 0x00000001 (0000ms, 4250ms total)
T25A8 1702:523 JLINK_ReadReg(R4)  returns 0x08001F20 (0000ms, 4250ms total)
T25A8 1702:523 JLINK_ReadReg(R5)  returns 0x00000001 (0000ms, 4250ms total)
T25A8 1702:523 JLINK_ReadReg(R6)  returns 0x08001F20 (0000ms, 4250ms total)
T25A8 1702:523 JLINK_ReadReg(R7)  returns 0xFFFFFFFF (0001ms, 4251ms total)
T25A8 1702:524 JLINK_ReadReg(R8)  returns 0xFFFFFFFF (0000ms, 4251ms total)
T25A8 1702:524 JLINK_ReadReg(R9)  returns 0xFFFFFFFF (0000ms, 4251ms total)
T25A8 1702:524 JLINK_ReadReg(R10)  returns 0xFFFFFFFF (0000ms, 4251ms total)
T25A8 1702:524 JLINK_ReadReg(R11)  returns 0xFFFFFFFF (0000ms, 4251ms total)
T25A8 1702:524 JLINK_ReadReg(R12)  returns 0xFFFFFFFF (0000ms, 4251ms total)
T25A8 1702:524 JLINK_ReadReg(R13 (SP))  returns 0x200006C8 (0000ms, 4251ms total)
T25A8 1702:524 JLINK_ReadReg(R14)  returns 0x08001E79 (0001ms, 4252ms total)
T25A8 1702:525 JLINK_ReadReg(R15 (PC))  returns 0x080019C2 (0000ms, 4252ms total)
T25A8 1702:525 JLINK_ReadReg(XPSR)  returns 0x61000000 (0000ms, 4252ms total)
T25A8 1702:525 JLINK_ReadReg(MSP)  returns 0x200006C8 (0000ms, 4252ms total)
T25A8 1702:525 JLINK_ReadReg(PSP)  returns 0xFFFFFFFC (0000ms, 4252ms total)
T25A8 1702:525 JLINK_ReadReg(CFBP)  returns 0x00000000 (0000ms, 4252ms total)
T1CA8 1702:525 JLINK_ReadMemEx(0x200006CC, 0x0004 Bytes, ..., Flags = 0x02000000) -- CPU_ReadMem(64 bytes @ 0x200006C0) -- Updating C cache (64 bytes @ 0x200006C0) -- Read from C cache (4 bytes @ 0x200006CC) - Data: 79 1E 00 08  returns 0x04 (0003ms, 4255ms total)
T1CA8 1702:528 JLINK_ReadMemEx(0x200006C8, 0x0004 Bytes, ..., Flags = 0x02000000) -- Read from C cache (4 bytes @ 0x200006C8) - Data: 20 1F 00 08  returns 0x04 (0000ms, 4255ms total)
T25A8 1703:465 JLINK_ReadMemEx(0x080019C2, 0x0002 Bytes, ..., Flags = 0x02000000) -- Read from C cache (2 bytes @ 0x080019C2) - Data: 00 F0  returns 0x02 (0000ms, 4255ms total)
T25A8 1703:465 JLINK_ReadMemEx(0x080019C4, 0x003C Bytes, ..., Flags = 0x02000000) -- Read from C cache (60 bytes @ 0x080019C4) - Data: 40 F8 30 20 FE F7 6E FC 01 20 00 F0 3B FA 36 20 ...  returns 0x3C (0001ms, 4256ms total)
T25A8 1703:466 JLINK_ReadMemEx(0x080019C2, 0x0002 Bytes, ..., Flags = 0x02000000) -- Read from C cache (2 bytes @ 0x080019C2) - Data: 00 F0  returns 0x02 (0000ms, 4256ms total)
T25A8 1703:466 JLINK_Step() -- Read from C cache (2 bytes @ 0x080019C2) -- Read from C cache (2 bytes @ 0x080019C4) -- Simulated  returns 0x00 (0001ms, 4257ms total)
T25A8 1703:468 JLINK_ReadReg(R15 (PC))  returns 0x08001A46 (0000ms, 4257ms total)
T25A8 1703:468 JLINK_ReadReg(XPSR)  returns 0x61000000 (0000ms, 4257ms total)
T25A8 1703:468 JLINK_ReadReg(R0)  returns 0x24000000 (0000ms, 4257ms total)
T25A8 1703:468 JLINK_ReadReg(R1)  returns 0x200006B8 (0000ms, 4257ms total)
T25A8 1703:468 JLINK_ReadReg(R2)  returns 0x00000004 (0000ms, 4257ms total)
T25A8 1703:468 JLINK_ReadReg(R3)  returns 0x00000001 (0000ms, 4257ms total)
T25A8 1703:468 JLINK_ReadReg(R4)  returns 0x08001F20 (0001ms, 4258ms total)
T25A8 1703:469 JLINK_ReadReg(R5)  returns 0x00000001 (0000ms, 4258ms total)
T25A8 1703:469 JLINK_ReadReg(R6)  returns 0x08001F20 (0000ms, 4258ms total)
T25A8 1703:469 JLINK_ReadReg(R7)  returns 0xFFFFFFFF (0000ms, 4258ms total)
T25A8 1703:469 JLINK_ReadReg(R8)  returns 0xFFFFFFFF (0000ms, 4258ms total)
T25A8 1703:469 JLINK_ReadReg(R9)  returns 0xFFFFFFFF (0000ms, 4258ms total)
T25A8 1703:469 JLINK_ReadReg(R10)  returns 0xFFFFFFFF (0000ms, 4258ms total)
T25A8 1703:469 JLINK_ReadReg(R11)  returns 0xFFFFFFFF (0000ms, 4258ms total)
T25A8 1703:469 JLINK_ReadReg(R12)  returns 0xFFFFFFFF (0000ms, 4258ms total)
T25A8 1703:469 JLINK_ReadReg(R13 (SP))  returns 0x200006C8 (0001ms, 4259ms total)
T25A8 1703:470 JLINK_ReadReg(R14)  returns 0x080019C7 (0000ms, 4259ms total)
T25A8 1703:470 JLINK_ReadReg(R15 (PC))  returns 0x08001A46 (0000ms, 4259ms total)
T25A8 1703:470 JLINK_ReadReg(XPSR)  returns 0x61000000 (0000ms, 4259ms total)
T25A8 1703:470 JLINK_ReadReg(MSP)  returns 0x200006C8 (0000ms, 4259ms total)
T25A8 1703:470 JLINK_ReadReg(PSP)  returns 0xFFFFFFFC (0000ms, 4259ms total)
T25A8 1703:470 JLINK_ReadReg(CFBP)  returns 0x00000000 (0000ms, 4259ms total)
T1CA8 1703:471 JLINK_ReadMemEx(0x200006CC, 0x0004 Bytes, ..., Flags = 0x02000000) -- Read from C cache (4 bytes @ 0x200006CC) - Data: 79 1E 00 08  returns 0x04 (0000ms, 4259ms total)
T1CA8 1703:471 JLINK_ReadMemEx(0x200006C8, 0x0004 Bytes, ..., Flags = 0x02000000) -- Read from C cache (4 bytes @ 0x200006C8) - Data: 20 1F 00 08  returns 0x04 (0000ms, 4259ms total)
T25A8 1713:345 JLINK_ReadMemEx(0x08001A46, 0x0002 Bytes, ..., Flags = 0x02000000) -- CPU_ReadMem(64 bytes @ 0x08001A40) -- Updating C cache (64 bytes @ 0x08001A40) -- Read from C cache (2 bytes @ 0x08001A46) - Data: 10 B5  returns 0x02 (0003ms, 4262ms total)
T25A8 1713:348 JLINK_ReadMemEx(0x08001A48, 0x003C Bytes, ..., Flags = 0x02000000) -- CPU_ReadMem(64 bytes @ 0x08001A80) -- Updating C cache (64 bytes @ 0x08001A80) -- Read from C cache (60 bytes @ 0x08001A48) - Data: 00 22 04 21 09 20 C0 06 FE F7 F7 FE 05 20 00 F0 ...  returns 0x3C (0002ms, 4264ms total)
T25A8 1713:350 JLINK_ReadMemEx(0x08001A46, 0x0002 Bytes, ..., Flags = 0x02000000) -- Read from C cache (2 bytes @ 0x08001A46) - Data: 10 B5  returns 0x02 (0000ms, 4264ms total)
T25A8 1713:350 JLINK_Step() -- Read from C cache (2 bytes @ 0x08001A46) -- CPU_WriteMem(8 bytes @ 0x200006C0) -- Simulated  returns 0x00 (0003ms, 4267ms total)
T25A8 1713:353 JLINK_ReadReg(R15 (PC))  returns 0x08001A48 (0000ms, 4267ms total)
T25A8 1713:353 JLINK_ReadReg(XPSR)  returns 0x61000000 (0000ms, 4267ms total)
T25A8 1713:353 JLINK_ReadReg(R0)  returns 0x24000000 (0000ms, 4267ms total)
T25A8 1713:353 JLINK_ReadReg(R1)  returns 0x200006B8 (0000ms, 4267ms total)
T25A8 1713:353 JLINK_ReadReg(R2)  returns 0x00000004 (0001ms, 4268ms total)
T25A8 1713:354 JLINK_ReadReg(R3)  returns 0x00000001 (0000ms, 4268ms total)
T25A8 1713:354 JLINK_ReadReg(R4)  returns 0x08001F20 (0000ms, 4268ms total)
T25A8 1713:354 JLINK_ReadReg(R5)  returns 0x00000001 (0000ms, 4268ms total)
T25A8 1713:354 JLINK_ReadReg(R6)  returns 0x08001F20 (0000ms, 4268ms total)
T25A8 1713:354 JLINK_ReadReg(R7)  returns 0xFFFFFFFF (0000ms, 4268ms total)
T25A8 1713:354 JLINK_ReadReg(R8)  returns 0xFFFFFFFF (0000ms, 4268ms total)
T25A8 1713:354 JLINK_ReadReg(R9)  returns 0xFFFFFFFF (0000ms, 4268ms total)
T25A8 1713:354 JLINK_ReadReg(R10)  returns 0xFFFFFFFF (0000ms, 4268ms total)
T25A8 1713:354 JLINK_ReadReg(R11)  returns 0xFFFFFFFF (0000ms, 4268ms total)
T25A8 1713:354 JLINK_ReadReg(R12)  returns 0xFFFFFFFF (0000ms, 4268ms total)
T25A8 1713:354 JLINK_ReadReg(R13 (SP))  returns 0x200006C0 (0000ms, 4268ms total)
T25A8 1713:354 JLINK_ReadReg(R14)  returns 0x080019C7 (0001ms, 4269ms total)
T25A8 1713:355 JLINK_ReadReg(R15 (PC))  returns 0x08001A48 (0000ms, 4269ms total)
T25A8 1713:355 JLINK_ReadReg(XPSR)  returns 0x61000000 (0000ms, 4269ms total)
T25A8 1713:355 JLINK_ReadReg(MSP)  returns 0x200006C0 (0000ms, 4269ms total)
T25A8 1713:355 JLINK_ReadReg(PSP)  returns 0xFFFFFFFC (0000ms, 4269ms total)
T25A8 1713:355 JLINK_ReadReg(CFBP)  returns 0x00000000 (0000ms, 4269ms total)
T1CA8 1713:355 JLINK_ReadMemEx(0x200006C4, 0x0004 Bytes, ..., Flags = 0x02000000) -- CPU_ReadMem(64 bytes @ 0x200006C0) -- Updating C cache (64 bytes @ 0x200006C0) -- Read from C cache (4 bytes @ 0x200006C4) - Data: C7 19 00 08  returns 0x04 (0002ms, 4271ms total)
T1CA8 1713:357 JLINK_ReadMemEx(0x200006C0, 0x0004 Bytes, ..., Flags = 0x02000000) -- Read from C cache (4 bytes @ 0x200006C0) - Data: 20 1F 00 08  returns 0x04 (0000ms, 4271ms total)
T1CA8 1713:357 JLINK_ReadMemEx(0x200006CC, 0x0004 Bytes, ..., Flags = 0x02000000) -- Read from C cache (4 bytes @ 0x200006CC) - Data: 79 1E 00 08  returns 0x04 (0000ms, 4271ms total)
T1CA8 1713:357 JLINK_ReadMemEx(0x200006C8, 0x0004 Bytes, ..., Flags = 0x02000000) -- Read from C cache (4 bytes @ 0x200006C8) - Data: 20 1F 00 08  returns 0x04 (0000ms, 4271ms total)
T1CA8 1713:362 JLINK_ReadMemEx(0x08001A48, 0x003C Bytes, ..., Flags = 0x02000000) -- Read from C cache (60 bytes @ 0x08001A48) - Data: 00 22 04 21 09 20 C0 06 FE F7 F7 FE 05 20 00 F0 ...  returns 0x3C (0000ms, 4271ms total)
T25A8 1714:409 JLINK_ReadMemEx(0x08001A48, 0x0002 Bytes, ..., Flags = 0x02000000) -- Read from C cache (2 bytes @ 0x08001A48) - Data: 00 22  returns 0x02 (0000ms, 4271ms total)
T25A8 1714:409 JLINK_Step() -- Read from C cache (2 bytes @ 0x08001A48) -- Simulated  returns 0x00 (0002ms, 4273ms total)
T25A8 1714:411 JLINK_ReadReg(R15 (PC))  returns 0x08001A4A (0000ms, 4273ms total)
T25A8 1714:411 JLINK_ReadReg(XPSR)  returns 0x61000000 (0000ms, 4273ms total)
T25A8 1714:411 JLINK_ReadMemEx(0x08001A4A, 0x0002 Bytes, ..., Flags = 0x02000000) -- Read from C cache (2 bytes @ 0x08001A4A) - Data: 04 21  returns 0x02 (0000ms, 4273ms total)
T25A8 1714:411 JLINK_ReadMemEx(0x08001A4C, 0x003C Bytes, ..., Flags = 0x02000000) -- Read from C cache (60 bytes @ 0x08001A4C) - Data: 09 20 C0 06 FE F7 F7 FE 05 20 00 F0 F7 F9 01 22 ...  returns 0x3C (0000ms, 4273ms total)
T25A8 1714:411 JLINK_ReadMemEx(0x08001A4C, 0x0002 Bytes, ..., Flags = 0x02000000) -- Read from C cache (2 bytes @ 0x08001A4C) - Data: 09 20  returns 0x02 (0000ms, 4273ms total)
T25A8 1714:411 JLINK_Step() -- Read from C cache (2 bytes @ 0x08001A4A) -- Simulated  returns 0x00 (0000ms, 4273ms total)
T25A8 1714:411 JLINK_ReadReg(R15 (PC))  returns 0x08001A4C (0001ms, 4274ms total)
T25A8 1714:412 JLINK_ReadReg(XPSR)  returns 0x21000000 (0000ms, 4274ms total)
T25A8 1714:412 JLINK_ReadMemEx(0x08001A4C, 0x003C Bytes, ..., Flags = 0x02000000) -- Read from C cache (60 bytes @ 0x08001A4C) - Data: 09 20 C0 06 FE F7 F7 FE 05 20 00 F0 F7 F9 01 22 ...  returns 0x3C (0000ms, 4274ms total)
T25A8 1714:412 JLINK_ReadMemEx(0x08001A4C, 0x0002 Bytes, ..., Flags = 0x02000000) -- Read from C cache (2 bytes @ 0x08001A4C) - Data: 09 20  returns 0x02 (0000ms, 4274ms total)
T25A8 1714:412 JLINK_ReadMemEx(0x08001A4E, 0x0002 Bytes, ..., Flags = 0x02000000) -- Read from C cache (2 bytes @ 0x08001A4E) - Data: C0 06  returns 0x02 (0000ms, 4274ms total)
T25A8 1714:412 JLINK_Step() -- Read from C cache (2 bytes @ 0x08001A4C) -- Simulated  returns 0x00 (0000ms, 4274ms total)
T25A8 1714:412 JLINK_ReadReg(R15 (PC))  returns 0x08001A4E (0000ms, 4274ms total)
T25A8 1714:412 JLINK_ReadReg(XPSR)  returns 0x21000000 (0000ms, 4274ms total)
T25A8 1714:412 JLINK_ReadMemEx(0x08001A4E, 0x0002 Bytes, ..., Flags = 0x02000000) -- Read from C cache (2 bytes @ 0x08001A4E) - Data: C0 06  returns 0x02 (0000ms, 4274ms total)
T25A8 1714:412 JLINK_ReadMemEx(0x08001A50, 0x003C Bytes, ..., Flags = 0x02000000) -- Read from C cache (60 bytes @ 0x08001A50) - Data: FE F7 F7 FE 05 20 00 F0 F7 F9 01 22 04 21 09 20 ...  returns 0x3C (0000ms, 4274ms total)
T25A8 1714:412 JLINK_ReadMemEx(0x08001A50, 0x0002 Bytes, ..., Flags = 0x02000000) -- Read from C cache (2 bytes @ 0x08001A50) - Data: FE F7  returns 0x02 (0001ms, 4275ms total)
T25A8 1714:413 JLINK_Step() -- Read from C cache (2 bytes @ 0x08001A4E) -- Simulated  returns 0x00 (0000ms, 4275ms total)
T25A8 1714:413 JLINK_ReadReg(R15 (PC))  returns 0x08001A50 (0000ms, 4275ms total)
T25A8 1714:413 JLINK_ReadReg(XPSR)  returns 0x01000000 (0000ms, 4275ms total)
T25A8 1714:413 JLINK_ReadMemEx(0x08001A50, 0x003C Bytes, ..., Flags = 0x02000000) -- Read from C cache (60 bytes @ 0x08001A50) - Data: FE F7 F7 FE 05 20 00 F0 F7 F9 01 22 04 21 09 20 ...  returns 0x3C (0000ms, 4275ms total)
T25A8 1714:413 JLINK_ReadMemEx(0x08001A50, 0x0002 Bytes, ..., Flags = 0x02000000) -- Read from C cache (2 bytes @ 0x08001A50) - Data: FE F7  returns 0x02 (0000ms, 4275ms total)
T25A8 1714:413 JLINK_ReadMemEx(0x08001A52, 0x0002 Bytes, ..., Flags = 0x02000000) -- Read from C cache (2 bytes @ 0x08001A52) - Data: F7 FE  returns 0x02 (0000ms, 4275ms total)
T25A8 1714:413 JLINK_SetBPEx(Addr = 0x08001A54, Type = 0xFFFFFFF2)  returns 0x00000004 (0000ms, 4275ms total)
T25A8 1714:413 JLINK_SetBPEx(Addr = 0x08001E74, Type = 0xFFFFFFF2)  returns 0x00000005 (0000ms, 4275ms total)
T25A8 1714:413 JLINK_SetBPEx(Addr = 0x08001E78, Type = 0xFFFFFFF2)  returns 0x00000006 (0000ms, 4275ms total)
T25A8 1714:413 JLINK_Go() -- CPU_WriteMem(4 bytes @ 0xE0002000) -- CPU_WriteMem(4 bytes @ 0xE0002000) -- CPU_WriteMem(4 bytes @ 0xE0002000) -- CPU_ReadMem(4 bytes @ 0xE0001000) -- CPU_WriteMem(4 bytes @ 0xE0001000) -- CPU_WriteMem(4 bytes @ 0xE0002008) -- CPU_WriteMem(4 bytes @ 0xE000200C) -- CPU_WriteMem(4 bytes @ 0xE0002010) -- CPU_WriteMem(4 bytes @ 0xE0001004) (0013ms, 4288ms total)
T25A8 1714:526 JLINK_IsHalted()  returns TRUE (0005ms, 4293ms total)
T25A8 1714:531 JLINK_Halt()  returns 0x00 (0001ms, 4289ms total)
T25A8 1714:532 JLINK_IsHalted()  returns TRUE (0000ms, 4289ms total)
T25A8 1714:532 JLINK_IsHalted()  returns TRUE (0000ms, 4289ms total)
T25A8 1714:532 JLINK_IsHalted()  returns TRUE (0000ms, 4289ms total)
T25A8 1714:532 JLINK_ReadReg(R15 (PC))  returns 0x08001A54 (0000ms, 4289ms total)
T25A8 1714:532 JLINK_ReadReg(XPSR)  returns 0x61000000 (0000ms, 4289ms total)
T25A8 1714:532 JLINK_ClrBPEx(BPHandle = 0x00000004)  returns 0x00 (0000ms, 4289ms total)
T25A8 1714:532 JLINK_ClrBPEx(BPHandle = 0x00000005)  returns 0x00 (0000ms, 4289ms total)
T25A8 1714:532 JLINK_ClrBPEx(BPHandle = 0x00000006)  returns 0x00 (0001ms, 4290ms total)
T25A8 1714:533 JLINK_ReadMemU32(0xE000ED30, 0x0001 Items, ...) -- CPU_ReadMem(4 bytes @ 0xE000ED30) - Data: 02 00 00 00  returns 0x01 (0002ms, 4292ms total)
T25A8 1714:535 JLINK_ReadMemU32(0xE0001028, 0x0001 Items, ...) -- CPU_ReadMem(4 bytes @ 0xE0001028) - Data: 00 00 00 00  returns 0x01 (0002ms, 4294ms total)
T25A8 1714:537 JLINK_ReadMemU32(0xE0001038, 0x0001 Items, ...) -- CPU_ReadMem(4 bytes @ 0xE0001038) - Data: 00 00 00 00  returns 0x01 (0001ms, 4295ms total)
T25A8 1714:538 JLINK_ReadReg(R0)  returns 0x48000000 (0000ms, 4295ms total)
T25A8 1714:538 JLINK_ReadReg(R1)  returns 0x00000004 (0000ms, 4295ms total)
T25A8 1714:538 JLINK_ReadReg(R2)  returns 0x00000000 (0000ms, 4295ms total)
T25A8 1714:538 JLINK_ReadReg(R3)  returns 0x00000001 (0000ms, 4295ms total)
T25A8 1714:538 JLINK_ReadReg(R4)  returns 0x08001F20 (0000ms, 4295ms total)
T25A8 1714:538 JLINK_ReadReg(R5)  returns 0x00000001 (0000ms, 4295ms total)
T25A8 1714:538 JLINK_ReadReg(R6)  returns 0x08001F20 (0000ms, 4295ms total)
T25A8 1714:538 JLINK_ReadReg(R7)  returns 0xFFFFFFFF (0001ms, 4296ms total)
T25A8 1714:539 JLINK_ReadReg(R8)  returns 0xFFFFFFFF (0000ms, 4296ms total)
T25A8 1714:539 JLINK_ReadReg(R9)  returns 0xFFFFFFFF (0000ms, 4296ms total)
T25A8 1714:539 JLINK_ReadReg(R10)  returns 0xFFFFFFFF (0000ms, 4296ms total)
T25A8 1714:539 JLINK_ReadReg(R11)  returns 0xFFFFFFFF (0000ms, 4296ms total)
T25A8 1714:539 JLINK_ReadReg(R12)  returns 0xFFFFFFFF (0000ms, 4296ms total)
T25A8 1714:539 JLINK_ReadReg(R13 (SP))  returns 0x200006C0 (0000ms, 4296ms total)
T25A8 1714:539 JLINK_ReadReg(R14)  returns 0x08001A55 (0000ms, 4296ms total)
T25A8 1714:539 JLINK_ReadReg(R15 (PC))  returns 0x08001A54 (0000ms, 4296ms total)
T25A8 1714:539 JLINK_ReadReg(XPSR)  returns 0x61000000 (0000ms, 4296ms total)
T25A8 1714:539 JLINK_ReadReg(MSP)  returns 0x200006C0 (0001ms, 4297ms total)
T25A8 1714:540 JLINK_ReadReg(PSP)  returns 0xFFFFFFFC (0000ms, 4297ms total)
T25A8 1714:540 JLINK_ReadReg(CFBP)  returns 0x00000000 (0000ms, 4297ms total)
T1CA8 1714:540 JLINK_ReadMemEx(0x200006C4, 0x0004 Bytes, ..., Flags = 0x02000000) -- CPU_ReadMem(64 bytes @ 0x200006C0) -- Updating C cache (64 bytes @ 0x200006C0) -- Read from C cache (4 bytes @ 0x200006C4) - Data: C7 19 00 08  returns 0x04 (0002ms, 4299ms total)
T1CA8 1714:542 JLINK_ReadMemEx(0x200006C0, 0x0004 Bytes, ..., Flags = 0x02000000) -- Read from C cache (4 bytes @ 0x200006C0) - Data: 20 1F 00 08  returns 0x04 (0000ms, 4299ms total)
T1CA8 1714:542 JLINK_ReadMemEx(0x200006CC, 0x0004 Bytes, ..., Flags = 0x02000000) -- Read from C cache (4 bytes @ 0x200006CC) - Data: 79 1E 00 08  returns 0x04 (0000ms, 4299ms total)
T1CA8 1714:542 JLINK_ReadMemEx(0x200006C8, 0x0004 Bytes, ..., Flags = 0x02000000) -- Read from C cache (4 bytes @ 0x200006C8) - Data: 20 1F 00 08  returns 0x04 (0000ms, 4299ms total)
T1CA8 1714:548 JLINK_ReadMemEx(0x08001A54, 0x003C Bytes, ..., Flags = 0x02000000) -- CPU_ReadMem(128 bytes @ 0x08001A40) -- Updating C cache (128 bytes @ 0x08001A40) -- Read from C cache (60 bytes @ 0x08001A54) - Data: 05 20 00 F0 F7 F9 01 22 04 21 09 20 C0 06 FE F7 ...  returns 0x3C (0002ms, 4301ms total)
T25A8 1715:054 JLINK_ReadMemEx(0x08001A54, 0x0002 Bytes, ..., Flags = 0x02000000) -- Read from C cache (2 bytes @ 0x08001A54) - Data: 05 20  returns 0x02 (0000ms, 4301ms total)
T25A8 1715:054 JLINK_Step() -- Read from C cache (2 bytes @ 0x08001A54) -- CPU_ReadMem(4 bytes @ 0xE0001004) -- Simulated  returns 0x00 (0003ms, 4304ms total)
T25A8 1715:057 JLINK_ReadReg(R15 (PC))  returns 0x08001A56 (0000ms, 4304ms total)
T25A8 1715:057 JLINK_ReadReg(XPSR)  returns 0x21000000 (0000ms, 4304ms total)
T25A8 1715:057 JLINK_ReadMemEx(0x08001A56, 0x0002 Bytes, ..., Flags = 0x02000000) -- Read from C cache (2 bytes @ 0x08001A56) - Data: 00 F0  returns 0x02 (0000ms, 4304ms total)
T25A8 1715:057 JLINK_ReadMemEx(0x08001A58, 0x003C Bytes, ..., Flags = 0x02000000) -- Read from C cache (60 bytes @ 0x08001A58) - Data: F7 F9 01 22 04 21 09 20 C0 06 FE F7 EE FE 05 20 ...  returns 0x3C (0000ms, 4304ms total)
T25A8 1715:057 JLINK_ReadMemEx(0x08001A58, 0x0002 Bytes, ..., Flags = 0x02000000) -- Read from C cache (2 bytes @ 0x08001A58) - Data: F7 F9  returns 0x02 (0000ms, 4304ms total)
T25A8 1715:057 JLINK_SetBPEx(Addr = 0x08001A5A, Type = 0xFFFFFFF2)  returns 0x00000007 (0000ms, 4304ms total)
T25A8 1715:057 JLINK_SetBPEx(Addr = 0x08001E74, Type = 0xFFFFFFF2)  returns 0x00000008 (0001ms, 4305ms total)
T25A8 1715:058 JLINK_SetBPEx(Addr = 0x08001E78, Type = 0xFFFFFFF2)  returns 0x00000009 (0000ms, 4305ms total)
T25A8 1715:058 JLINK_Go() -- CPU_WriteMem(4 bytes @ 0xE0002000) -- CPU_WriteMem(4 bytes @ 0xE0002000) -- CPU_WriteMem(4 bytes @ 0xE0002000) -- CPU_ReadMem(4 bytes @ 0xE0001000) -- CPU_WriteMem(4 bytes @ 0xE0001000) -- CPU_WriteMem(4 bytes @ 0xE0002008) -- CPU_WriteMem(4 bytes @ 0xE0001004) (0011ms, 4316ms total)
T25A8 1715:169 JLINK_IsHalted()  returns TRUE (0005ms, 4321ms total)
T25A8 1715:174 JLINK_Halt()  returns 0x00 (0000ms, 4316ms total)
T25A8 1715:174 JLINK_IsHalted()  returns TRUE (0000ms, 4316ms total)
T25A8 1715:175 JLINK_IsHalted()  returns TRUE (0000ms, 4316ms total)
T25A8 1715:175 JLINK_IsHalted()  returns TRUE (0000ms, 4316ms total)
T25A8 1715:175 JLINK_ReadReg(R15 (PC))  returns 0x08001A5A (0000ms, 4316ms total)
T25A8 1715:175 JLINK_ReadReg(XPSR)  returns 0x61000000 (0000ms, 4316ms total)
T25A8 1715:175 JLINK_ClrBPEx(BPHandle = 0x00000007)  returns 0x00 (0000ms, 4316ms total)
T25A8 1715:175 JLINK_ClrBPEx(BPHandle = 0x00000008)  returns 0x00 (0000ms, 4316ms total)
T25A8 1715:175 JLINK_ClrBPEx(BPHandle = 0x00000009)  returns 0x00 (0000ms, 4316ms total)
T25A8 1715:175 JLINK_ReadMemU32(0xE000ED30, 0x0001 Items, ...) -- CPU_ReadMem(4 bytes @ 0xE000ED30) - Data: 02 00 00 00  returns 0x01 (0001ms, 4317ms total)
T25A8 1715:176 JLINK_ReadMemU32(0xE0001028, 0x0001 Items, ...) -- CPU_ReadMem(4 bytes @ 0xE0001028) - Data: 00 00 00 00  returns 0x01 (0001ms, 4318ms total)
T25A8 1715:177 JLINK_ReadMemU32(0xE0001038, 0x0001 Items, ...) -- CPU_ReadMem(4 bytes @ 0xE0001038) - Data: 00 00 00 00  returns 0x01 (0001ms, 4319ms total)
T25A8 1715:179 JLINK_ReadReg(R0)  returns 0x00000005 (0000ms, 4319ms total)
T25A8 1715:179 JLINK_ReadReg(R1)  returns 0x00000000 (0000ms, 4319ms total)
T25A8 1715:179 JLINK_ReadReg(R2)  returns 0x00000000 (0000ms, 4319ms total)
T25A8 1715:179 JLINK_ReadReg(R3)  returns 0x00000001 (0000ms, 4319ms total)
T25A8 1715:179 JLINK_ReadReg(R4)  returns 0x08001F20 (0000ms, 4319ms total)
T25A8 1715:179 JLINK_ReadReg(R5)  returns 0x00000001 (0000ms, 4319ms total)
T25A8 1715:179 JLINK_ReadReg(R6)  returns 0x08001F20 (0000ms, 4319ms total)
T25A8 1715:179 JLINK_ReadReg(R7)  returns 0xFFFFFFFF (0000ms, 4319ms total)
T25A8 1715:179 JLINK_ReadReg(R8)  returns 0xFFFFFFFF (0000ms, 4319ms total)
T25A8 1715:179 JLINK_ReadReg(R9)  returns 0xFFFFFFFF (0000ms, 4319ms total)
T25A8 1715:179 JLINK_ReadReg(R10)  returns 0xFFFFFFFF (0000ms, 4319ms total)
T25A8 1715:179 JLINK_ReadReg(R11)  returns 0xFFFFFFFF (0000ms, 4319ms total)
T25A8 1715:179 JLINK_ReadReg(R12)  returns 0xFFFFFFFF (0000ms, 4319ms total)
T25A8 1715:179 JLINK_ReadReg(R13 (SP))  returns 0x200006C0 (0001ms, 4320ms total)
T25A8 1715:180 JLINK_ReadReg(R14)  returns 0x08001A5B (0000ms, 4320ms total)
T25A8 1715:180 JLINK_ReadReg(R15 (PC))  returns 0x08001A5A (0000ms, 4320ms total)
T25A8 1715:180 JLINK_ReadReg(XPSR)  returns 0x61000000 (0000ms, 4320ms total)
T25A8 1715:180 JLINK_ReadReg(MSP)  returns 0x200006C0 (0000ms, 4320ms total)
T25A8 1715:180 JLINK_ReadReg(PSP)  returns 0xFFFFFFFC (0000ms, 4320ms total)
T25A8 1715:180 JLINK_ReadReg(CFBP)  returns 0x00000000 (0000ms, 4320ms total)
T1CA8 1715:180 JLINK_ReadMemEx(0x200006C4, 0x0004 Bytes, ..., Flags = 0x02000000) -- CPU_ReadMem(64 bytes @ 0x200006C0) -- Updating C cache (64 bytes @ 0x200006C0) -- Read from C cache (4 bytes @ 0x200006C4) - Data: C7 19 00 08  returns 0x04 (0002ms, 4322ms total)
T1CA8 1715:182 JLINK_ReadMemEx(0x200006C0, 0x0004 Bytes, ..., Flags = 0x02000000) -- Read from C cache (4 bytes @ 0x200006C0) - Data: 20 1F 00 08  returns 0x04 (0000ms, 4322ms total)
T1CA8 1715:182 JLINK_ReadMemEx(0x200006CC, 0x0004 Bytes, ..., Flags = 0x02000000) -- Read from C cache (4 bytes @ 0x200006CC) - Data: 79 1E 00 08  returns 0x04 (0000ms, 4322ms total)
T1CA8 1715:182 JLINK_ReadMemEx(0x200006C8, 0x0004 Bytes, ..., Flags = 0x02000000) -- Read from C cache (4 bytes @ 0x200006C8) - Data: 20 1F 00 08  returns 0x04 (0000ms, 4322ms total)
T1CA8 1715:186 JLINK_ReadMemEx(0x08001A5A, 0x0002 Bytes, ..., Flags = 0x02000000) -- CPU_ReadMem(64 bytes @ 0x08001A40) -- Updating C cache (64 bytes @ 0x08001A40) -- Read from C cache (2 bytes @ 0x08001A5A) - Data: 01 22  returns 0x02 (0002ms, 4324ms total)
T1CA8 1715:188 JLINK_ReadMemEx(0x08001A5C, 0x003C Bytes, ..., Flags = 0x02000000) -- CPU_ReadMem(64 bytes @ 0x08001A80) -- Updating C cache (64 bytes @ 0x08001A80) -- Read from C cache (60 bytes @ 0x08001A5C) - Data: 04 21 09 20 C0 06 FE F7 EE FE 05 20 00 F0 EE F9 ...  returns 0x3C (0002ms, 4326ms total)
T25A8 1715:728 JLINK_ReadMemEx(0x08001A5A, 0x0002 Bytes, ..., Flags = 0x02000000) -- Read from C cache (2 bytes @ 0x08001A5A) - Data: 01 22  returns 0x02 (0000ms, 4326ms total)
T25A8 1715:728 JLINK_Step() -- Read from C cache (2 bytes @ 0x08001A5A) -- CPU_ReadMem(4 bytes @ 0xE0001004) -- Simulated  returns 0x00 (0002ms, 4328ms total)
T25A8 1715:730 JLINK_ReadReg(R15 (PC))  returns 0x08001A5C (0000ms, 4328ms total)
T25A8 1715:730 JLINK_ReadReg(XPSR)  returns 0x21000000 (0000ms, 4328ms total)
T25A8 1715:730 JLINK_ReadMemEx(0x08001A5C, 0x003C Bytes, ..., Flags = 0x02000000) -- Read from C cache (60 bytes @ 0x08001A5C) - Data: 04 21 09 20 C0 06 FE F7 EE FE 05 20 00 F0 EE F9 ...  returns 0x3C (0000ms, 4328ms total)
T25A8 1715:730 JLINK_ReadMemEx(0x08001A5C, 0x0002 Bytes, ..., Flags = 0x02000000) -- Read from C cache (2 bytes @ 0x08001A5C) - Data: 04 21  returns 0x02 (0001ms, 4329ms total)
T25A8 1715:731 JLINK_ReadMemEx(0x08001A5E, 0x0002 Bytes, ..., Flags = 0x02000000) -- Read from C cache (2 bytes @ 0x08001A5E) - Data: 09 20  returns 0x02 (0000ms, 4329ms total)
T25A8 1715:731 JLINK_Step() -- Read from C cache (2 bytes @ 0x08001A5C) -- Simulated  returns 0x00 (0000ms, 4329ms total)
T25A8 1715:731 JLINK_ReadReg(R15 (PC))  returns 0x08001A5E (0000ms, 4329ms total)
T25A8 1715:731 JLINK_ReadReg(XPSR)  returns 0x21000000 (0000ms, 4329ms total)
T25A8 1715:731 JLINK_ReadMemEx(0x08001A5E, 0x0002 Bytes, ..., Flags = 0x02000000) -- Read from C cache (2 bytes @ 0x08001A5E) - Data: 09 20  returns 0x02 (0000ms, 4329ms total)
T25A8 1715:731 JLINK_ReadMemEx(0x08001A60, 0x003C Bytes, ..., Flags = 0x02000000) -- Read from C cache (60 bytes @ 0x08001A60) - Data: C0 06 FE F7 EE FE 05 20 00 F0 EE F9 10 BD 70 47 ...  returns 0x3C (0000ms, 4329ms total)
T25A8 1715:731 JLINK_ReadMemEx(0x08001A60, 0x0002 Bytes, ..., Flags = 0x02000000) -- Read from C cache (2 bytes @ 0x08001A60) - Data: C0 06  returns 0x02 (0000ms, 4329ms total)
T25A8 1715:731 JLINK_Step() -- Read from C cache (2 bytes @ 0x08001A5E) -- Simulated  returns 0x00 (0000ms, 4329ms total)
T25A8 1715:731 JLINK_ReadReg(R15 (PC))  returns 0x08001A60 (0000ms, 4329ms total)
T25A8 1715:731 JLINK_ReadReg(XPSR)  returns 0x21000000 (0000ms, 4329ms total)
T25A8 1715:731 JLINK_ReadMemEx(0x08001A60, 0x003C Bytes, ..., Flags = 0x02000000) -- Read from C cache (60 bytes @ 0x08001A60) - Data: C0 06 FE F7 EE FE 05 20 00 F0 EE F9 10 BD 70 47 ...  returns 0x3C (0000ms, 4329ms total)
T25A8 1715:731 JLINK_ReadMemEx(0x08001A60, 0x0002 Bytes, ..., Flags = 0x02000000) -- Read from C cache (2 bytes @ 0x08001A60) - Data: C0 06  returns 0x02 (0000ms, 4329ms total)
T25A8 1715:731 JLINK_ReadMemEx(0x08001A62, 0x0002 Bytes, ..., Flags = 0x02000000) -- Read from C cache (2 bytes @ 0x08001A62) - Data: FE F7  returns 0x02 (0000ms, 4329ms total)
T25A8 1715:731 JLINK_Step() -- Read from C cache (2 bytes @ 0x08001A60) -- Simulated  returns 0x00 (0000ms, 4329ms total)
T25A8 1715:731 JLINK_ReadReg(R15 (PC))  returns 0x08001A62 (0000ms, 4329ms total)
T25A8 1715:731 JLINK_ReadReg(XPSR)  returns 0x01000000 (0000ms, 4329ms total)
T25A8 1715:731 JLINK_ReadMemEx(0x08001A62, 0x0002 Bytes, ..., Flags = 0x02000000) -- Read from C cache (2 bytes @ 0x08001A62) - Data: FE F7  returns 0x02 (0000ms, 4329ms total)
T25A8 1715:731 JLINK_ReadMemEx(0x08001A64, 0x003C Bytes, ..., Flags = 0x02000000) -- Read from C cache (60 bytes @ 0x08001A64) - Data: EE FE 05 20 00 F0 EE F9 10 BD 70 47 00 20 0C E0 ...  returns 0x3C (0001ms, 4330ms total)
T25A8 1715:732 JLINK_ReadMemEx(0x08001A64, 0x0002 Bytes, ..., Flags = 0x02000000) -- Read from C cache (2 bytes @ 0x08001A64) - Data: EE FE  returns 0x02 (0000ms, 4330ms total)
T25A8 1715:732 JLINK_SetBPEx(Addr = 0x08001A66, Type = 0xFFFFFFF2)  returns 0x0000000A (0000ms, 4330ms total)
T25A8 1715:732 JLINK_SetBPEx(Addr = 0x08001E74, Type = 0xFFFFFFF2)  returns 0x0000000B (0000ms, 4330ms total)
T25A8 1715:732 JLINK_SetBPEx(Addr = 0x08001E78, Type = 0xFFFFFFF2)  returns 0x0000000C (0000ms, 4330ms total)
T25A8 1715:732 JLINK_Go() -- CPU_WriteMem(4 bytes @ 0xE0002000) -- CPU_WriteMem(4 bytes @ 0xE0002000) -- CPU_WriteMem(4 bytes @ 0xE0002000) -- CPU_ReadMem(4 bytes @ 0xE0001000) -- CPU_WriteMem(4 bytes @ 0xE0001000) -- CPU_WriteMem(4 bytes @ 0xE0002008) -- CPU_WriteMem(4 bytes @ 0xE0001004) (0009ms, 4339ms total)
T25A8 1715:841 JLINK_IsHalted()  returns TRUE (0004ms, 4343ms total)
T25A8 1715:845 JLINK_Halt()  returns 0x00 (0000ms, 4339ms total)
T25A8 1715:845 JLINK_IsHalted()  returns TRUE (0000ms, 4339ms total)
T25A8 1715:845 JLINK_IsHalted()  returns TRUE (0000ms, 4339ms total)
T25A8 1715:845 JLINK_IsHalted()  returns TRUE (0000ms, 4339ms total)
T25A8 1715:845 JLINK_ReadReg(R15 (PC))  returns 0x08001A66 (0000ms, 4339ms total)
T25A8 1715:845 JLINK_ReadReg(XPSR)  returns 0x21000000 (0000ms, 4339ms total)
T25A8 1715:845 JLINK_ClrBPEx(BPHandle = 0x0000000A)  returns 0x00 (0001ms, 4340ms total)
T25A8 1715:846 JLINK_ClrBPEx(BPHandle = 0x0000000B)  returns 0x00 (0000ms, 4340ms total)
T25A8 1715:846 JLINK_ClrBPEx(BPHandle = 0x0000000C)  returns 0x00 (0000ms, 4340ms total)
T25A8 1715:846 JLINK_ReadMemU32(0xE000ED30, 0x0001 Items, ...) -- CPU_ReadMem(4 bytes @ 0xE000ED30) - Data: 02 00 00 00  returns 0x01 (0001ms, 4341ms total)
T25A8 1715:847 JLINK_ReadMemU32(0xE0001028, 0x0001 Items, ...) -- CPU_ReadMem(4 bytes @ 0xE0001028) - Data: 00 00 00 00  returns 0x01 (0001ms, 4342ms total)
T25A8 1715:848 JLINK_ReadMemU32(0xE0001038, 0x0001 Items, ...) -- CPU_ReadMem(4 bytes @ 0xE0001038) - Data: 00 00 00 00  returns 0x01 (0001ms, 4343ms total)
T25A8 1715:849 JLINK_ReadReg(R0)  returns 0x48000000 (0000ms, 4343ms total)
T25A8 1715:849 JLINK_ReadReg(R1)  returns 0x00000004 (0000ms, 4343ms total)
T25A8 1715:849 JLINK_ReadReg(R2)  returns 0x00000001 (0000ms, 4343ms total)
T25A8 1715:849 JLINK_ReadReg(R3)  returns 0x00000001 (0000ms, 4343ms total)
T25A8 1715:849 JLINK_ReadReg(R4)  returns 0x08001F20 (0000ms, 4343ms total)
T25A8 1715:849 JLINK_ReadReg(R5)  returns 0x00000001 (0001ms, 4344ms total)
T25A8 1715:850 JLINK_ReadReg(R6)  returns 0x08001F20 (0000ms, 4344ms total)
T25A8 1715:850 JLINK_ReadReg(R7)  returns 0xFFFFFFFF (0000ms, 4344ms total)
T25A8 1715:850 JLINK_ReadReg(R8)  returns 0xFFFFFFFF (0000ms, 4344ms total)
T25A8 1715:850 JLINK_ReadReg(R9)  returns 0xFFFFFFFF (0000ms, 4344ms total)
T25A8 1715:850 JLINK_ReadReg(R10)  returns 0xFFFFFFFF (0000ms, 4344ms total)
T25A8 1715:850 JLINK_ReadReg(R11)  returns 0xFFFFFFFF (0000ms, 4344ms total)
T25A8 1715:850 JLINK_ReadReg(R12)  returns 0xFFFFFFFF (0000ms, 4344ms total)
T25A8 1715:850 JLINK_ReadReg(R13 (SP))  returns 0x200006C0 (0000ms, 4344ms total)
T25A8 1715:850 JLINK_ReadReg(R14)  returns 0x08001A67 (0000ms, 4344ms total)
T25A8 1715:850 JLINK_ReadReg(R15 (PC))  returns 0x08001A66 (0000ms, 4344ms total)
T25A8 1715:850 JLINK_ReadReg(XPSR)  returns 0x21000000 (0000ms, 4344ms total)
